;$FILEVERSION=1.1
;$STARTTIME=44972.5746762732
;
;   E:\tr2.trc
;
;   Start time: 2/15/2023 13:47:32.030.0
;   Generated by PCAN-View v4.2.5.569
;
;   Message Number
;   |         Time Offset (ms)
;   |         |        Type
;   |         |        |        ID (hex)
;   |         |        |        |     Data Length
;   |         |        |        |     |   Data Bytes (hex) ...
;   |         |        |        |     |   |
;---+--   ----+----  --+--  ----+---  +  -+ -- -- -- -- -- -- --
     1)      2700.4  Rx         000A  8  BE 00 00 00 00 00 00 00 
     2)      3585.3  Rx         0000  8  08 00 00 00 00 00 00 00 
     3)      3585.5  Rx         0010  8  01 00 00 00 00 00 00 00 
     4)      3596.3  Rx         0011  8  00 00 00 00 00 00 00 00 
     5)      3596.6  Rx         0012  8  30 31 32 33 34 35 36 37 
     6)      3607.4  Rx         0012  8  38 39 FF FF FF FF FF FF 
     7)      3618.4  Rx         0012  8  FF FF FF FF FF FF FF FF 
     8)      3629.4  Rx         0012  8  FF FF FF FF FF FF FF FF 
     9)      3640.4  Rx         0012  8  FF FF FF FF FF FF FF FF 
    10)      3651.3  Rx         0012  8  FF FF FF FF FF FF FF FF 
    11)      3662.4  Rx         0012  8  FF FF FF FF FF FF FF FF 
    12)      3673.4  Rx         0012  8  FF FF FF FF FF FF FF FF 
    13)      3684.4  Rx         0012  8  FF FF FF FF FF FF FF FF 
    14)      3695.4  Rx         0012  8  FF FF FF FF FF FF FF FF 
    15)      3706.3  Rx         0012  8  FF FF FF FF FF FF FF FF 
    16)      3717.4  Rx         0012  8  FF FF FF FF FF FF FF FF 
    17)      3728.4  Rx         0012  8  FF FF FF FF FF FF FF FF 
    18)      3739.4  Rx         0012  8  FF FF FF FF FF FF FF FF 
    19)      3750.4  Rx         0012  8  FF FF FF FF FF FF FF FF 
    20)      3761.4  Rx         0012  8  FF FF FF FF FF FF FF FF 
    21)      3772.3  Rx         0012  8  FF FF FF FF FF FF FF FF 
    22)      3783.4  Rx         0012  8  FF FF FF FF FF FF FF FF 
    23)      3794.4  Rx         0012  8  FF FF FF FF FF FF FF FF 
    24)      3805.4  Rx         0012  8  FF FF FF FF FF FF FF FF 
    25)      3816.4  Rx         0012  8  FF FF FF FF FF FF FF FF 
    26)      3827.4  Rx         0012  8  FF FF FF FF FF FF FF FF 
    27)      3838.4  Rx         0012  8  FF FF FF FF FF FF FF FF 
    28)      3849.4  Rx         0012  8  FF FF FF FF FF FF FF FF 
    29)      3860.4  Rx         0012  8  FF FF FF FF FF FF FF FF 
    30)      3871.4  Rx         0012  8  FF FF FF FF FF FF FF FF 
    31)      3882.4  Rx         0012  8  FF FF FF FF FF FF FF FF 
    32)      3893.4  Rx         0012  8  FF FF FF FF FF FF FF FF 
    33)      3904.4  Rx         0012  8  FF FF FF FF FF FF FF FF 
    34)      3915.4  Rx         0012  8  FF FF FF FF FF FF FF FF 
    35)      3926.4  Rx         0012  8  FF FF FF FF FF FF FF FF 
    36)      3937.4  Rx         0012  8  FF FF FF FF FF FF FF FF 
    37)      3948.4  Rx         0012  8  FF FF FF FF FF FF FF FF 
    38)      3959.4  Rx         0012  8  FF FF FF FF FF FF FF FF 
    39)      3970.4  Rx         0012  8  FF FF FF FF FF FF FF FF 
    40)      3981.4  Rx         0012  8  FF FF FF FF FF FF FF FF 
    41)      3992.4  Rx         0012  8  FF FF FF FF FF FF FF FF 
    42)      4003.4  Rx         0012  8  FF FF FF FF FF FF FF FF 
    43)      4014.4  Rx         0012  8  FF FF FF FF FF FF FF FF 
    44)      4025.4  Rx         0012  8  FF FF FF FF FF FF FF FF 
    45)      4036.4  Rx         0012  8  FF FF FF FF FF FF FF FF 
    46)      4047.4  Rx         0012  8  FF FF FF FF FF FF FF FF 
    47)      4058.4  Rx         0012  8  FF FF FF FF FF FF FF FF 
    48)      4069.4  Rx         0012  8  FF FF FF FF FF FF FF FF 
    49)      4080.4  Rx         0012  8  FF FF FF FF FF FF FF FF 
    50)      4091.4  Rx         0012  8  FF FF FF FF FF FF FF FF 
    51)      4102.4  Rx         0012  8  FF FF FF FF FF FF FF FF 
    52)      4113.4  Rx         0012  8  FF FF FF FF FF FF FF FF 
    53)      4124.4  Rx         0012  8  FF FF FF FF FF FF FF FF 
    54)      4135.4  Rx         0012  8  FF FF FF FF FF FF FF FF 
    55)      4146.4  Rx         0012  8  FF FF FF FF FF FF FF FF 
    56)      4157.4  Rx         0012  8  FF FF FF FF FF FF FF FF 
    57)      4168.4  Rx         0012  8  FF FF FF FF FF FF FF FF 
    58)      4179.4  Rx         0012  8  FF FF FF FF FF FF FF FF 
    59)      4190.4  Rx         0012  8  FF FF FF FF FF FF FF FF 
    60)      4201.4  Rx         0012  8  FF FF FF FF FF FF FF FF 
    61)      4212.4  Rx         0012  8  FF FF FF FF FF FF FF FF 
    62)      4223.4  Rx         0012  8  FF FF FF FF FF FF FF FF 
    63)      4234.4  Rx         0012  8  FF FF FF FF FF FF FF FF 
    64)      4245.4  Rx         0012  8  FF FF FF FF FF FF FF FF 
    65)      4256.4  Rx         0012  8  FF FF FF FF FF FF FF FF 
    66)      4267.4  Rx         0012  8  FF FF FF FF FF FF FF FF 
    67)      4278.4  Rx         0012  8  FF FF FF FF FF FF FF FF 
    68)      4289.4  Rx         0012  8  FF FF FF FF FF FF FF FF 
    69)      4300.4  Rx         0012  8  FF FF FF FF FF FF FF FF 
    70)      4311.4  Rx         0012  8  FF FF FF FF FF FF FF FF 
    71)      4322.4  Rx         0012  8  FF FF FF FF FF FF FF FF 
    72)      4333.4  Rx         0012  8  FF FF FF FF FF FF FF FF 
    73)      4344.4  Rx         0012  8  FF FF FF FF FF FF FF FF 
    74)      4355.4  Rx         0012  8  FF FF FF FF FF FF FF FF 
    75)      4366.4  Rx         0012  8  FF FF FF FF FF FF FF FF 
    76)      4377.4  Rx         0012  8  FF FF FF FF FF FF FF FF 
    77)      4388.4  Rx         0012  8  FF FF FF FF FF FF FF FF 
    78)      4399.4  Rx         0012  8  FF FF FF FF FF FF FF FF 
    79)      4410.4  Rx         0012  8  FF FF FF FF FF FF FF FF 
    80)      4421.4  Rx         0012  8  FF FF FF FF FF FF FF FF 
    81)      4432.4  Rx         0012  8  FF FF FF FF FF FF FF FF 
    82)      4443.4  Rx         0012  8  FF FF FF FF FF FF FF FF 
    83)      4454.4  Rx         0012  8  FF FF FF FF FF FF FF FF 
    84)      4465.4  Rx         0012  8  FF FF FF FF FF FF FF FF 
    85)      4476.4  Rx         0012  8  FF FF FF FF FF FF FF FF 
    86)      4487.4  Rx         0012  8  FF FF FF FF FF FF FF FF 
    87)      4498.4  Rx         0012  8  FF FF FF FF FF FF FF FF 
    88)      4509.4  Rx         0012  8  FF FF FF FF FF FF FF FF 
    89)      4520.4  Rx         0012  8  FF FF FF FF FF FF FF FF 
    90)      4531.4  Rx         0012  8  FF FF FF FF FF FF FF FF 
    91)      4542.4  Rx         0012  8  FF FF FF FF FF FF FF FF 
    92)      4553.4  Rx         0012  8  FF FF FF FF FF FF FF FF 
    93)      4564.4  Rx         0012  8  FF FF FF FF FF FF FF FF 
    94)      4575.4  Rx         0012  8  FF FF FF FF FF FF FF FF 
    95)      4586.4  Rx         0012  8  FF FF FF FF FF FF FF FF 
    96)      4597.4  Rx         0012  8  FF FF FF FF FF FF FF FF 
    97)      4608.4  Rx         0012  8  FF FF FF FF FF FF FF FF 
    98)      4619.4  Rx         0012  8  FF FF FF FF FF FF FF FF 
    99)      4630.4  Rx         0012  8  FF FF FF FF FF FF FF FF 
   100)      4641.4  Rx         0012  8  FF FF FF FF FF FF FF FF 
   101)      4652.4  Rx         0012  8  FF FF FF FF FF FF FF FF 
   102)      4663.4  Rx         0012  8  FF FF FF FF FF FF FF FF 
   103)      4674.4  Rx         0012  8  FF FF FF FF FF FF FF FF 
   104)      4685.4  Rx         0012  8  FF FF FF FF FF FF FF FF 
   105)      4696.4  Rx         0012  8  FF FF FF FF FF FF FF FF 
   106)      4707.4  Rx         0012  8  FF FF FF FF FF FF FF FF 
   107)      4718.4  Rx         0012  8  FF FF FF FF FF FF FF FF 
   108)      4729.4  Rx         0012  8  FF FF FF FF FF FF FF FF 
   109)      4740.4  Rx         0012  8  FF FF FF FF FF FF FF FF 
   110)      4751.4  Rx         0012  8  FF FF FF FF FF FF FF FF 
   111)      4762.4  Rx         0012  8  FF FF FF FF FF FF FF FF 
   112)      4773.4  Rx         0012  8  FF FF FF FF FF FF FF FF 
   113)      4784.4  Rx         0012  8  FF FF FF FF FF FF FF FF 
   114)      4795.4  Rx         0012  8  FF FF FF FF FF FF FF FF 
   115)      4806.4  Rx         0012  8  FF FF FF FF FF FF FF FF 
   116)      4817.4  Rx         0012  8  FF FF FF FF FF FF FF FF 
   117)      4828.4  Rx         0012  8  FF FF FF FF FF FF FF FF 
   118)      4839.4  Rx         0012  8  FF FF FF FF FF FF FF FF 
   119)      4850.4  Rx         0012  8  FF FF FF FF FF FF FF FF 
   120)      4861.4  Rx         0012  8  FF FF FF FF FF FF FF FF 
   121)      4872.4  Rx         0012  8  FF FF FF FF FF FF FF FF 
   122)      4883.4  Rx         0012  8  FF FF FF FF FF FF FF FF 
   123)      4894.4  Rx         0012  8  FF FF FF FF FF FF FF FF 
   124)      4905.4  Rx         0012  8  FF FF FF FF FF FF FF FF 
   125)      4916.4  Rx         0012  8  FF FF FF FF FF FF FF FF 
   126)      4927.4  Rx         0012  8  FF FF FF FF FF FF FF FF 
   127)      4938.4  Rx         0012  8  FF FF FF FF FF FF FF FF 
   128)      4949.4  Rx         0012  8  FF FF FF FF FF FF FF FF 
   129)      4960.4  Rx         0012  8  FF FF FF FF FF FF FF FF 
   130)      4971.4  Rx         0012  8  FF FF FF FF FF FF FF FF 
   131)      4982.4  Rx         0012  8  FF FF FF FF FF FF FF FF 
   132)      4993.4  Rx         0012  8  FF FF FF FF FF FF FF FF 
   133)      5004.4  Rx         0012  8  FF FF FF FF FF FF FF FF 
   134)      5015.4  Rx         0012  8  FF FF FF FF FF FF FF FF 
   135)      5026.4  Rx         0012  8  FF FF FF FF FF FF FF FF 
   136)      5037.4  Rx         0012  8  FF FF FF FF FF FF FF FF 
   137)      5048.4  Rx         0012  8  FF FF FF FF FF FF FF FF 
   138)      5059.4  Rx         0012  8  FF FF FF FF FF FF FF FF 
   139)      5070.4  Rx         0012  8  FF FF FF FF FF FF FF FF 
   140)      5081.4  Rx         0012  8  FF FF FF FF FF FF FF FF 
   141)      5092.4  Rx         0012  8  FF FF FF FF FF FF FF FF 
   142)      5103.4  Rx         0012  8  FF FF FF FF FF FF FF FF 
   143)      5114.4  Rx         0012  8  FF FF FF FF FF FF FF FF 
   144)      5125.4  Rx         0012  8  FF FF FF FF FF FF FF FF 
   145)      5136.4  Rx         0012  8  FF FF FF FF FF FF FF FF 
   146)      5147.4  Rx         0012  8  FF FF FF FF FF FF FF FF 
   147)      5158.4  Rx         0012  8  FF FF FF FF FF FF FF FF 
   148)      5169.4  Rx         0012  8  FF FF FF FF FF FF FF FF 
   149)      5180.4  Rx         0012  8  FF FF FF FF FF FF FF FF 
   150)      5191.4  Rx         0012  8  FF FF FF FF FF FF FF FF 
   151)      5202.4  Rx         0012  8  FF FF FF FF FF FF FF FF 
   152)      5213.4  Rx         0012  8  FF FF FF FF FF FF FF FF 
   153)      5224.4  Rx         0012  8  FF FF FF FF FF FF FF FF 
   154)      5235.4  Rx         0012  8  FF FF FF FF FF FF FF FF 
   155)      5246.4  Rx         0012  8  FF FF FF FF FF FF FF FF 
   156)      5257.4  Rx         0012  8  FF FF FF FF FF FF FF FF 
   157)      5268.4  Rx         0012  8  FF FF FF FF FF FF FF FF 
   158)      5279.4  Rx         0012  8  FF FF FF FF FF FF FF FF 
   159)      5290.4  Rx         0012  8  FF FF FF FF FF FF FF FF 
   160)      5301.4  Rx         0012  8  FF FF FF FF FF FF FF FF 
   161)      5312.4  Rx         0012  8  FF FF FF FF FF FF FF FF 
   162)      5323.4  Rx         0012  8  FF FF FF FF FF FF FF FF 
   163)      5334.4  Rx         0012  8  FF FF FF FF FF FF FF FF 
   164)      5345.4  Rx         0012  8  FF FF FF FF FF FF FF FF 
   165)      5356.4  Rx         0012  8  FF FF FF FF FF FF FF FF 
   166)      5367.4  Rx         0012  8  FF FF FF FF FF FF FF FF 
   167)      5378.4  Rx         0012  8  FF FF FF FF FF FF FF FF 
   168)      5389.4  Rx         0012  8  FF FF FF FF FF FF FF FF 
   169)      5400.4  Rx         0012  8  FF FF FF FF FF FF FF FF 
   170)      5411.4  Rx         0012  8  FF FF FF FF FF FF FF FF 
   171)      5422.4  Rx         0012  8  FF FF FF FF FF FF FF FF 
   172)      5433.4  Rx         0012  8  FF FF FF FF FF FF FF FF 
   173)      5444.4  Rx         0012  8  FF FF FF FF FF FF FF FF 
   174)      5455.4  Rx         0012  8  FF FF FF FF FF FF FF FF 
   175)      5466.4  Rx         0012  8  FF FF FF FF FF FF FF FF 
   176)      5477.4  Rx         0012  8  FF FF FF FF FF FF FF FF 
   177)      5488.4  Rx         0012  8  FF FF FF FF FF FF FF FF 
   178)      5499.4  Rx         0012  8  FF FF FF FF FF FF FF FF 
   179)      5510.4  Rx         0012  8  FF FF FF FF FF FF FF FF 
   180)      5521.4  Rx         0012  8  FF FF FF FF FF FF FF FF 
   181)      5532.4  Rx         0012  8  FF FF FF FF FF FF FF FF 
   182)      5543.4  Rx         0012  8  FF FF FF FF FF FF FF FF 
   183)      5554.4  Rx         0012  8  FF FF FF FF FF FF FF FF 
   184)      5565.4  Rx         0012  8  FF FF FF FF FF FF FF FF 
   185)      5576.4  Rx         0012  8  FF FF FF FF FF FF FF FF 
   186)      5587.4  Rx         0012  8  FF FF FF FF FF FF FF FF 
   187)      5598.4  Rx         0012  8  FF FF FF FF FF FF FF FF 
   188)      5609.4  Rx         0012  8  FF FF FF FF FF FF FF FF 
   189)      5620.4  Rx         0012  8  FF FF FF FF FF FF FF FF 
   190)      5631.4  Rx         0012  8  FF FF FF FF FF FF FF FF 
   191)      5642.4  Rx         0012  8  FF FF FF FF FF FF FF FF 
   192)      5653.4  Rx         0012  8  FF FF FF FF FF FF FF FF 
   193)      5664.4  Rx         0012  8  FF FF FF FF FF FF FF FF 
   194)      5675.4  Rx         0012  8  FF FF FF FF FF FF FF FF 
   195)      5686.4  Rx         0012  8  FF FF FF FF FF FF FF FF 
   196)      5697.4  Rx         0012  8  FF FF FF FF FF FF FF FF 
   197)      5708.4  Rx         0012  8  FF FF FF FF FF FF FF FF 
   198)      5719.4  Rx         0012  8  FF FF FF FF FF FF FF FF 
   199)      5730.4  Rx         0012  8  FF FF FF FF FF FF FF FF 
   200)      5741.4  Rx         0012  8  FF FF FF FF FF FF FF FF 
   201)      5752.4  Rx         0012  8  FF FF FF FF FF FF FF FF 
   202)      5763.4  Rx         0012  8  FF FF FF FF FF FF FF FF 
   203)      5774.4  Rx         0012  8  FF FF FF FF FF FF FF FF 
   204)      5785.4  Rx         0012  8  FF FF FF FF FF FF FF FF 
   205)      5796.4  Rx         0012  8  FF FF FF FF FF FF FF FF 
   206)      5807.4  Rx         0012  8  FF FF FF FF FF FF FF FF 
   207)      5818.4  Rx         0012  8  FF FF FF FF FF FF FF FF 
   208)      5829.4  Rx         0012  8  FF FF FF FF FF FF FF FF 
   209)      5840.4  Rx         0012  8  FF FF FF FF FF FF FF FF 
   210)      5851.4  Rx         0012  8  FF FF FF FF FF FF FF FF 
   211)      5862.4  Rx         0012  8  FF FF FF FF FF FF FF FF 
   212)      5873.4  Rx         0012  8  FF FF FF FF FF FF FF FF 
   213)      5884.4  Rx         0012  8  FF FF FF FF FF FF FF FF 
   214)      5895.4  Rx         0012  8  FF FF FF FF FF FF FF FF 
   215)      5906.4  Rx         0012  8  FF FF FF FF FF FF FF FF 
   216)      5917.4  Rx         0012  8  FF FF FF FF FF FF FF FF 
   217)      5928.4  Rx         0012  8  FF FF FF FF FF FF FF FF 
   218)      5939.4  Rx         0012  8  FF FF FF FF FF FF FF FF 
   219)      5950.4  Rx         0012  8  FF FF FF FF FF FF FF FF 
   220)      5961.4  Rx         0012  8  FF FF FF FF FF FF FF FF 
   221)      5972.4  Rx         0012  8  FF FF FF FF FF FF FF FF 
   222)      5983.4  Rx         0012  8  FF FF FF FF FF FF FF FF 
   223)      5994.4  Rx         0012  8  FF FF FF FF FF FF FF FF 
   224)      6005.4  Rx         0012  8  FF FF FF FF FF FF FF FF 
   225)      6016.4  Rx         0012  8  FF FF FF FF FF FF FF FF 
   226)      6027.4  Rx         0012  8  FF FF FF FF FF FF FF FF 
   227)      6038.4  Rx         0012  8  FF FF FF FF FF FF FF FF 
   228)      6049.4  Rx         0012  8  FF FF FF FF FF FF FF FF 
   229)      6060.4  Rx         0012  8  FF FF FF FF FF FF FF FF 
   230)      6071.4  Rx         0012  8  FF FF FF FF FF FF FF FF 
   231)      6082.4  Rx         0012  8  FF FF FF FF FF FF FF FF 
   232)      6093.4  Rx         0012  8  FF FF FF FF FF FF FF FF 
   233)      6104.4  Rx         0012  8  FF FF FF FF FF FF FF FF 
   234)      6115.4  Rx         0012  8  FF FF FF FF FF FF FF FF 
   235)      6126.4  Rx         0012  8  FF FF FF FF FF FF FF FF 
   236)      6137.4  Rx         0012  8  FF FF FF FF FF FF FF FF 
   237)      6148.4  Rx         0012  8  FF FF FF FF FF FF FF FF 
   238)      6159.4  Rx         0012  8  FF FF FF FF FF FF FF FF 
   239)      6170.4  Rx         0012  8  FF FF FF FF FF FF FF FF 
   240)      6181.4  Rx         0012  8  FF FF FF FF FF FF FF FF 
   241)      6192.4  Rx         0012  8  FF FF FF FF FF FF FF FF 
   242)      6203.4  Rx         0012  8  FF FF FF FF FF FF FF FF 
   243)      6214.4  Rx         0012  8  FF FF FF FF FF FF FF FF 
   244)      6225.4  Rx         0012  8  FF FF FF FF FF FF FF FF 
   245)      6236.4  Rx         0012  8  FF FF FF FF FF FF FF FF 
   246)      6247.4  Rx         0012  8  FF FF FF FF FF FF FF FF 
   247)      6258.4  Rx         0012  8  FF FF FF FF FF FF FF FF 
   248)      6269.4  Rx         0012  8  FF FF FF FF FF FF FF FF 
   249)      6280.4  Rx         0012  8  FF FF FF FF FF FF FF FF 
   250)      6291.4  Rx         0012  8  FF FF FF FF FF FF FF FF 
   251)      6302.4  Rx         0012  8  FF FF FF FF FF FF FF FF 
   252)      6313.4  Rx         0012  8  FF FF FF FF FF FF FF FF 
   253)      6324.4  Rx         0012  8  FF FF FF FF FF FF FF FF 
   254)      6335.4  Rx         0012  8  FF FF FF FF FF FF FF FF 
   255)      6346.4  Rx         0012  8  FF FF FF FF FF FF FF FF 
   256)      6357.4  Rx         0012  8  FF FF FF FF FF FF FF FF 
   257)      6368.4  Rx         0012  8  FF FF FF FF FF FF FF FF 
   258)      6379.4  Rx         0012  8  FF FF FF FF FF FF FF FF 
   259)      6390.4  Rx         0012  8  FF FF FF FF FF FF FF FF 
   260)      6401.4  Rx         0012  8  FF FF FF FF FF FF FF FF 
   261)      6513.4  Rx         0013  8  00 FF FF FF FF FF FF FF 
   262)      6614.4  Rx         0000  8  07 FF FF FF FF FF FF FF 
   263)     16746.6  Rx         000A  8  BF 00 00 00 00 00 00 00 
   264)     26746.9  Rx         000A  8  C0 00 00 00 00 00 00 00 
   265)     36747.0  Rx         000A  8  C1 00 00 00 00 00 00 00 
   266)     46747.3  Rx         000A  8  C2 00 00 00 00 00 00 00 
   267)     56747.5  Rx         000A  8  C3 00 00 00 00 00 00 00 
   268)     66747.7  Rx         000A  8  C4 00 00 00 00 00 00 00 
   269)     76747.9  Rx         000A  8  C5 00 00 00 00 00 00 00 
   270)     86748.0  Rx         000A  8  C6 00 00 00 00 00 00 00 
   271)     96748.3  Rx         000A  8  C7 00 00 00 00 00 00 00 
   272)    106748.6  Rx         000A  8  C8 00 00 00 00 00 00 00 
   273)    115264.7  Rx         0000  8  08 00 00 00 00 00 00 00 
   274)    115264.9  Rx         0010  8  01 00 00 00 00 00 00 00 
   275)    115275.6  Rx         0011  8  00 00 00 00 00 00 00 00 
   276)    115275.9  Rx         0012  8  30 31 32 33 34 35 36 37 
   277)    115286.6  Rx         0012  8  38 39 FF FF FF FF FF FF 
   278)    115297.7  Rx         0012  8  FF FF FF FF FF FF FF FF 
   279)    115308.7  Rx         0012  8  FF FF FF FF FF FF FF FF 
   280)    115319.6  Rx         0012  8  FF FF FF FF FF FF FF FF 
   281)    115330.6  Rx         0012  8  FF FF FF FF FF FF FF FF 
   282)    115341.6  Rx         0012  8  FF FF FF FF FF FF FF FF 
   283)    115352.6  Rx         0012  8  FF FF FF FF FF FF FF FF 
   284)    115363.7  Rx         0012  8  FF FF FF FF FF FF FF FF 
   285)    115374.7  Rx         0012  8  FF FF FF FF FF FF FF FF 
   286)    115385.6  Rx         0012  8  FF FF FF FF FF FF FF FF 
   287)    115396.6  Rx         0012  8  FF FF FF FF FF FF FF FF 
   288)    115407.6  Rx         0012  8  FF FF FF FF FF FF FF FF 
   289)    115418.7  Rx         0012  8  FF FF FF FF FF FF FF FF 
   290)    115429.7  Rx         0012  8  FF FF FF FF FF FF FF FF 
   291)    115440.7  Rx         0012  8  FF FF FF FF FF FF FF FF 
   292)    115451.6  Rx         0012  8  FF FF FF FF FF FF FF FF 
   293)    115462.6  Rx         0012  8  FF FF FF FF FF FF FF FF 
   294)    115473.6  Rx         0012  8  FF FF FF FF FF FF FF FF 
   295)    115484.7  Rx         0012  8  FF FF FF FF FF FF FF FF 
   296)    115495.7  Rx         0012  8  FF FF FF FF FF FF FF FF 
   297)    115506.6  Rx         0012  8  FF FF FF FF FF FF FF FF 
   298)    115517.6  Rx         0012  8  FF FF FF FF FF FF FF FF 
   299)    115528.6  Rx         0012  8  FF FF FF FF FF FF FF FF 
   300)    115539.7  Rx         0012  8  FF FF FF FF FF FF FF FF 
   301)    115550.7  Rx         0012  8  FF FF FF FF FF FF FF FF 
   302)    115561.7  Rx         0012  8  FF FF FF FF FF FF FF FF 
   303)    115572.6  Rx         0012  8  FF FF FF FF FF FF FF FF 
   304)    115583.6  Rx         0012  8  FF FF FF FF FF FF FF FF 
   305)    115594.6  Rx         0012  8  FF FF FF FF FF FF FF FF 
   306)    115605.7  Rx         0012  8  FF FF FF FF FF FF FF FF 
   307)    115616.7  Rx         0012  8  FF FF FF FF FF FF FF FF 
   308)    115627.7  Rx         0012  8  FF FF FF FF FF FF FF FF 
   309)    115638.6  Rx         0012  8  FF FF FF FF FF FF FF FF 
   310)    115649.6  Rx         0012  8  FF FF FF FF FF FF FF FF 
   311)    115660.7  Rx         0012  8  FF FF FF FF FF FF FF FF 
   312)    115671.7  Rx         0012  8  FF FF FF FF FF FF FF FF 
   313)    115682.7  Rx         0012  8  FF FF FF FF FF FF FF FF 
   314)    115693.6  Rx         0012  8  FF FF FF FF FF FF FF FF 
   315)    115704.6  Rx         0012  8  FF FF FF FF FF FF FF FF 
   316)    115715.6  Rx         0012  8  FF FF FF FF FF FF FF FF 
   317)    115726.7  Rx         0012  8  FF FF FF FF FF FF FF FF 
   318)    115737.7  Rx         0012  8  FF FF FF FF FF FF FF FF 
   319)    115748.7  Rx         0012  8  FF FF FF FF FF FF FF FF 
   320)    115759.6  Rx         0012  8  FF FF FF FF FF FF FF FF 
   321)    115770.6  Rx         0012  8  FF FF FF FF FF FF FF FF 
   322)    115781.7  Rx         0012  8  FF FF FF FF FF FF FF FF 
   323)    115792.7  Rx         0012  8  FF FF FF FF FF FF FF FF 
   324)    115803.7  Rx         0012  8  FF FF FF FF FF FF FF FF 
   325)    115814.6  Rx         0012  8  FF FF FF FF FF FF FF FF 
   326)    115825.6  Rx         0012  8  FF FF FF FF FF FF FF FF 
   327)    115836.7  Rx         0012  8  FF FF FF FF FF FF FF FF 
   328)    115847.7  Rx         0012  8  FF FF FF FF FF FF FF FF 
   329)    115858.7  Rx         0012  8  FF FF FF FF FF FF FF FF 
   330)    115869.7  Rx         0012  8  FF FF FF FF FF FF FF FF 
   331)    115880.7  Rx         0012  8  FF FF FF FF FF FF FF FF 
   332)    115891.7  Rx         0012  8  FF FF FF FF FF FF FF FF 
   333)    115902.7  Rx         0012  8  FF FF FF FF FF FF FF FF 
   334)    115913.7  Rx         0012  8  FF FF FF FF FF FF FF FF 
   335)    115924.7  Rx         0012  8  FF FF FF FF FF FF FF FF 
   336)    115935.7  Rx         0012  8  FF FF FF FF FF FF FF FF 
   337)    115946.7  Rx         0012  8  FF FF FF FF FF FF FF FF 
   338)    115957.7  Rx         0012  8  FF FF FF FF FF FF FF FF 
   339)    115968.7  Rx         0012  8  FF FF FF FF FF FF FF FF 
   340)    115979.7  Rx         0012  8  FF FF FF FF FF FF FF FF 
   341)    115990.7  Rx         0012  8  FF FF FF FF FF FF FF FF 
   342)    116001.7  Rx         0012  8  FF FF FF FF FF FF FF FF 
   343)    116012.7  Rx         0012  8  FF FF FF FF FF FF FF FF 
   344)    116023.7  Rx         0012  8  FF FF FF FF FF FF FF FF 
   345)    116034.7  Rx         0012  8  FF FF FF FF FF FF FF FF 
   346)    116045.7  Rx         0012  8  FF FF FF FF FF FF FF FF 
   347)    116056.7  Rx         0012  8  FF FF FF FF FF FF FF FF 
   348)    116067.7  Rx         0012  8  FF FF FF FF FF FF FF FF 
   349)    116078.7  Rx         0012  8  FF FF FF FF FF FF FF FF 
   350)    116089.7  Rx         0012  8  FF FF FF FF FF FF FF FF 
   351)    116100.7  Rx         0012  8  FF FF FF FF FF FF FF FF 
   352)    116111.7  Rx         0012  8  FF FF FF FF FF FF FF FF 
   353)    116122.7  Rx         0012  8  FF FF FF FF FF FF FF FF 
   354)    116133.7  Rx         0012  8  FF FF FF FF FF FF FF FF 
   355)    116144.7  Rx         0012  8  FF FF FF FF FF FF FF FF 
   356)    116155.7  Rx         0012  8  FF FF FF FF FF FF FF FF 
   357)    116166.7  Rx         0012  8  FF FF FF FF FF FF FF FF 
   358)    116177.7  Rx         0012  8  FF FF FF FF FF FF FF FF 
   359)    116188.7  Rx         0012  8  FF FF FF FF FF FF FF FF 
   360)    116199.7  Rx         0012  8  FF FF FF FF FF FF FF FF 
   361)    116210.7  Rx         0012  8  FF FF FF FF FF FF FF FF 
   362)    116221.7  Rx         0012  8  FF FF FF FF FF FF FF FF 
   363)    116232.7  Rx         0012  8  FF FF FF FF FF FF FF FF 
   364)    116243.7  Rx         0012  8  FF FF FF FF FF FF FF FF 
   365)    116254.7  Rx         0012  8  FF FF FF FF FF FF FF FF 
   366)    116265.7  Rx         0012  8  FF FF FF FF FF FF FF FF 
   367)    116276.7  Rx         0012  8  FF FF FF FF FF FF FF FF 
   368)    116287.7  Rx         0012  8  FF FF FF FF FF FF FF FF 
   369)    116298.7  Rx         0012  8  FF FF FF FF FF FF FF FF 
   370)    116309.7  Rx         0012  8  FF FF FF FF FF FF FF FF 
   371)    116320.7  Rx         0012  8  FF FF FF FF FF FF FF FF 
   372)    116331.7  Rx         0012  8  FF FF FF FF FF FF FF FF 
   373)    116342.7  Rx         0012  8  FF FF FF FF FF FF FF FF 
   374)    116353.7  Rx         0012  8  FF FF FF FF FF FF FF FF 
   375)    116364.7  Rx         0012  8  FF FF FF FF FF FF FF FF 
   376)    116375.7  Rx         0012  8  FF FF FF FF FF FF FF FF 
   377)    116386.7  Rx         0012  8  FF FF FF FF FF FF FF FF 
   378)    116397.7  Rx         0012  8  FF FF FF FF FF FF FF FF 
   379)    116408.7  Rx         0012  8  FF FF FF FF FF FF FF FF 
   380)    116419.7  Rx         0012  8  FF FF FF FF FF FF FF FF 
   381)    116430.7  Rx         0012  8  FF FF FF FF FF FF FF FF 
   382)    116441.7  Rx         0012  8  FF FF FF FF FF FF FF FF 
   383)    116452.7  Rx         0012  8  FF FF FF FF FF FF FF FF 
   384)    116463.7  Rx         0012  8  FF FF FF FF FF FF FF FF 
   385)    116474.7  Rx         0012  8  FF FF FF FF FF FF FF FF 
   386)    116485.7  Rx         0012  8  FF FF FF FF FF FF FF FF 
   387)    116496.7  Rx         0012  8  FF FF FF FF FF FF FF FF 
   388)    116507.7  Rx         0012  8  FF FF FF FF FF FF FF FF 
   389)    116518.7  Rx         0012  8  FF FF FF FF FF FF FF FF 
   390)    116529.7  Rx         0012  8  FF FF FF FF FF FF FF FF 
   391)    116540.7  Rx         0012  8  FF FF FF FF FF FF FF FF 
   392)    116551.7  Rx         0012  8  FF FF FF FF FF FF FF FF 
   393)    116562.7  Rx         0012  8  FF FF FF FF FF FF FF FF 
   394)    116573.7  Rx         0012  8  FF FF FF FF FF FF FF FF 
   395)    116584.7  Rx         0012  8  FF FF FF FF FF FF FF FF 
   396)    116595.7  Rx         0012  8  FF FF FF FF FF FF FF FF 
   397)    116606.7  Rx         0012  8  FF FF FF FF FF FF FF FF 
   398)    116617.7  Rx         0012  8  FF FF FF FF FF FF FF FF 
   399)    116628.7  Rx         0012  8  FF FF FF FF FF FF FF FF 
   400)    116639.7  Rx         0012  8  FF FF FF FF FF FF FF FF 
   401)    116650.7  Rx         0012  8  FF FF FF FF FF FF FF FF 
   402)    116661.7  Rx         0012  8  FF FF FF FF FF FF FF FF 
   403)    116672.7  Rx         0012  8  FF FF FF FF FF FF FF FF 
   404)    116683.7  Rx         0012  8  FF FF FF FF FF FF FF FF 
   405)    116694.7  Rx         0012  8  FF FF FF FF FF FF FF FF 
   406)    116705.7  Rx         0012  8  FF FF FF FF FF FF FF FF 
   407)    116716.7  Rx         0012  8  FF FF FF FF FF FF FF FF 
   408)    116727.7  Rx         0012  8  FF FF FF FF FF FF FF FF 
   409)    116738.7  Rx         0012  8  FF FF FF FF FF FF FF FF 
   410)    116749.7  Rx         0012  8  FF FF FF FF FF FF FF FF 
   411)    116760.7  Rx         0012  8  FF FF FF FF FF FF FF FF 
   412)    116771.7  Rx         0012  8  FF FF FF FF FF FF FF FF 
   413)    116782.7  Rx         0012  8  FF FF FF FF FF FF FF FF 
   414)    116793.7  Rx         0012  8  FF FF FF FF FF FF FF FF 
   415)    116804.7  Rx         0012  8  FF FF FF FF FF FF FF FF 
   416)    116815.7  Rx         0012  8  FF FF FF FF FF FF FF FF 
   417)    116826.7  Rx         0012  8  FF FF FF FF FF FF FF FF 
   418)    116837.7  Rx         0012  8  FF FF FF FF FF FF FF FF 
   419)    116848.7  Rx         0012  8  FF FF FF FF FF FF FF FF 
   420)    116859.8  Rx         0012  8  FF FF FF FF FF FF FF FF 
   421)    116870.7  Rx         0012  8  FF FF FF FF FF FF FF FF 
   422)    116881.7  Rx         0012  8  FF FF FF FF FF FF FF FF 
   423)    116892.7  Rx         0012  8  FF FF FF FF FF FF FF FF 
   424)    116903.7  Rx         0012  8  FF FF FF FF FF FF FF FF 
   425)    116914.8  Rx         0012  8  FF FF FF FF FF FF FF FF 
   426)    116925.7  Rx         0012  8  FF FF FF FF FF FF FF FF 
   427)    116936.7  Rx         0012  8  FF FF FF FF FF FF FF FF 
   428)    116947.7  Rx         0012  8  FF FF FF FF FF FF FF FF 
   429)    116958.7  Rx         0012  8  FF FF FF FF FF FF FF FF 
   430)    116969.7  Rx         0012  8  FF FF FF FF FF FF FF FF 
   431)    116980.8  Rx         0012  8  FF FF FF FF FF FF FF FF 
   432)    116991.7  Rx         0012  8  FF FF FF FF FF FF FF FF 
   433)    117002.7  Rx         0012  8  FF FF FF FF FF FF FF FF 
   434)    117013.7  Rx         0012  8  FF FF FF FF FF FF FF FF 
   435)    117024.7  Rx         0012  8  FF FF FF FF FF FF FF FF 
   436)    117035.8  Rx         0012  8  FF FF FF FF FF FF FF FF 
   437)    117046.8  Rx         0012  8  FF FF FF FF FF FF FF FF 
   438)    117057.7  Rx         0012  8  FF FF FF FF FF FF FF FF 
   439)    117068.7  Rx         0012  8  FF FF FF FF FF FF FF FF 
   440)    117079.7  Rx         0012  8  FF FF FF FF FF FF FF FF 
   441)    117090.7  Rx         0012  8  FF FF FF FF FF FF FF FF 
   442)    117101.8  Rx         0012  8  FF FF FF FF FF FF FF FF 
   443)    117112.7  Rx         0012  8  FF FF FF FF FF FF FF FF 
   444)    117123.7  Rx         0012  8  FF FF FF FF FF FF FF FF 
   445)    117134.7  Rx         0012  8  FF FF FF FF FF FF FF FF 
   446)    117145.7  Rx         0012  8  FF FF FF FF FF FF FF FF 
   447)    117156.8  Rx         0012  8  FF FF FF FF FF FF FF FF 
   448)    117167.8  Rx         0012  8  FF FF FF FF FF FF FF FF 
   449)    117178.7  Rx         0012  8  FF FF FF FF FF FF FF FF 
   450)    117189.7  Rx         0012  8  FF FF FF FF FF FF FF FF 
   451)    117200.7  Rx         0012  8  FF FF FF FF FF FF FF FF 
   452)    117211.8  Rx         0012  8  FF FF FF FF FF FF FF FF 
   453)    117222.8  Rx         0012  8  FF FF FF FF FF FF FF FF 
   454)    117233.7  Rx         0012  8  FF FF FF FF FF FF FF FF 
   455)    117244.7  Rx         0012  8  FF FF FF FF FF FF FF FF 
   456)    117255.7  Rx         0012  8  FF FF FF FF FF FF FF FF 
   457)    117266.7  Rx         0012  8  FF FF FF FF FF FF FF FF 
   458)    117277.8  Rx         0012  8  FF FF FF FF FF FF FF FF 
   459)    117288.8  Rx         0012  8  FF FF FF FF FF FF FF FF 
   460)    117299.7  Rx         0012  8  FF FF FF FF FF FF FF FF 
   461)    117310.7  Rx         0012  8  FF FF FF FF FF FF FF FF 
   462)    117321.7  Rx         0012  8  FF FF FF FF FF FF FF FF 
   463)    117332.8  Rx         0012  8  FF FF FF FF FF FF FF FF 
   464)    117343.8  Rx         0012  8  FF FF FF FF FF FF FF FF 
   465)    117354.7  Rx         0012  8  FF FF FF FF FF FF FF FF 
   466)    117365.7  Rx         0012  8  FF FF FF FF FF FF FF FF 
   467)    117376.7  Rx         0012  8  FF FF FF FF FF FF FF FF 
   468)    117387.7  Rx         0012  8  FF FF FF FF FF FF FF FF 
   469)    117398.8  Rx         0012  8  FF FF FF FF FF FF FF FF 
   470)    117409.8  Rx         0012  8  FF FF FF FF FF FF FF FF 
   471)    117420.7  Rx         0012  8  FF FF FF FF FF FF FF FF 
   472)    117431.7  Rx         0012  8  FF FF FF FF FF FF FF FF 
   473)    117442.7  Rx         0012  8  FF FF FF FF FF FF FF FF 
   474)    117453.8  Rx         0012  8  FF FF FF FF FF FF FF FF 
   475)    117464.8  Rx         0012  8  FF FF FF FF FF FF FF FF 
   476)    117475.8  Rx         0012  8  FF FF FF FF FF FF FF FF 
   477)    117486.7  Rx         0012  8  FF FF FF FF FF FF FF FF 
   478)    117497.7  Rx         0012  8  FF FF FF FF FF FF FF FF 
   479)    117508.7  Rx         0012  8  FF FF FF FF FF FF FF FF 
   480)    117519.8  Rx         0012  8  FF FF FF FF FF FF FF FF 
   481)    117530.8  Rx         0012  8  FF FF FF FF FF FF FF FF 
   482)    117541.7  Rx         0012  8  FF FF FF FF FF FF FF FF 
   483)    117552.7  Rx         0012  8  FF FF FF FF FF FF FF FF 
   484)    117563.7  Rx         0012  8  FF FF FF FF FF FF FF FF 
   485)    117574.8  Rx         0012  8  FF FF FF FF FF FF FF FF 
   486)    117585.8  Rx         0012  8  FF FF FF FF FF FF FF FF 
   487)    117596.8  Rx         0012  8  FF FF FF FF FF FF FF FF 
   488)    117607.7  Rx         0012  8  FF FF FF FF FF FF FF FF 
   489)    117618.7  Rx         0012  8  FF FF FF FF FF FF FF FF 
   490)    117629.7  Rx         0012  8  FF FF FF FF FF FF FF FF 
   491)    117640.8  Rx         0012  8  FF FF FF FF FF FF FF FF 
   492)    117651.8  Rx         0012  8  FF FF FF FF FF FF FF FF 
   493)    117662.8  Rx         0012  8  FF FF FF FF FF FF FF FF 
   494)    117673.7  Rx         0012  8  FF FF FF FF FF FF FF FF 
   495)    117684.7  Rx         0012  8  FF FF FF FF FF FF FF FF 
   496)    117695.8  Rx         0012  8  FF FF FF FF FF FF FF FF 
   497)    117706.8  Rx         0012  8  FF FF FF FF FF FF FF FF 
   498)    117717.8  Rx         0012  8  FF FF FF FF FF FF FF FF 
   499)    117728.7  Rx         0012  8  FF FF FF FF FF FF FF FF 
   500)    117739.7  Rx         0012  8  FF FF FF FF FF FF FF FF 
   501)    117750.7  Rx         0012  8  FF FF FF FF FF FF FF FF 
   502)    117761.8  Rx         0012  8  FF FF FF FF FF FF FF FF 
   503)    117772.8  Rx         0012  8  FF FF FF FF FF FF FF FF 
   504)    117783.8  Rx         0012  8  FF FF FF FF FF FF FF FF 
   505)    117794.7  Rx         0012  8  FF FF FF FF FF FF FF FF 
   506)    117805.7  Rx         0012  8  FF FF FF FF FF FF FF FF 
   507)    117816.8  Rx         0012  8  FF FF FF FF FF FF FF FF 
   508)    117827.8  Rx         0012  8  FF FF FF FF FF FF FF FF 
   509)    117838.8  Rx         0012  8  FF FF FF FF FF FF FF FF 
   510)    117849.7  Rx         0012  8  FF FF FF FF FF FF FF FF 
   511)    117860.8  Rx         0012  8  FF FF FF FF FF FF FF FF 
   512)    117871.8  Rx         0012  8  FF FF FF FF FF FF FF FF 
   513)    117882.8  Rx         0012  8  FF FF FF FF FF FF FF FF 
   514)    117893.8  Rx         0012  8  FF FF FF FF FF FF FF FF 
   515)    117904.8  Rx         0012  8  FF FF FF FF FF FF FF FF 
   516)    117915.8  Rx         0012  8  FF FF FF FF FF FF FF FF 
   517)    117926.8  Rx         0012  8  FF FF FF FF FF FF FF FF 
   518)    117937.8  Rx         0012  8  FF FF FF FF FF FF FF FF 
   519)    117948.8  Rx         0012  8  FF FF FF FF FF FF FF FF 
   520)    117959.8  Rx         0012  8  FF FF FF FF FF FF FF FF 
   521)    117970.8  Rx         0012  8  FF FF FF FF FF FF FF FF 
   522)    117981.8  Rx         0012  8  FF FF FF FF FF FF FF FF 
   523)    117992.8  Rx         0012  8  FF FF FF FF FF FF FF FF 
   524)    118003.8  Rx         0012  8  FF FF FF FF FF FF FF FF 
   525)    118014.8  Rx         0012  8  FF FF FF FF FF FF FF FF 
   526)    118025.8  Rx         0012  8  FF FF FF FF FF FF FF FF 
   527)    118036.8  Rx         0012  8  FF FF FF FF FF FF FF FF 
   528)    118047.8  Rx         0012  8  FF FF FF FF FF FF FF FF 
   529)    118058.8  Rx         0012  8  FF FF FF FF FF FF FF FF 
   530)    118069.8  Rx         0012  8  FF FF FF FF FF FF FF FF 
   531)    118080.8  Rx         0012  8  FF FF FF FF FF FF FF FF 
   532)    118192.8  Rx         0013  8  00 FF FF FF FF FF FF FF 
   533)    118293.8  Rx         0000  8  07 FF FF FF FF FF FF FF 
   534)    120794.8  Rx         000A  8  C9 00 00 00 00 00 00 00 
   535)    130795.0  Rx         000A  8  CA 00 00 00 00 00 00 00 
   536)    140795.3  Rx         000A  8  CB 00 00 00 00 00 00 00 
   537)    150795.4  Rx         000A  8  CC 00 00 00 00 00 00 00 
   538)    160795.7  Rx         000A  8  CD 00 00 00 00 00 00 00 
   539)    170795.8  Rx         000A  8  CE 00 00 00 00 00 00 00 
   540)    180796.1  Rx         000A  8  CF 00 00 00 00 00 00 00 
   541)    190796.2  Rx         000A  8  D0 00 00 00 00 00 00 00 
   542)    200796.4  Rx         000A  8  D1 00 00 00 00 00 00 00 
   543)    210796.7  Rx         000A  8  D2 00 00 00 00 00 00 00 
   544)    220796.9  Rx         000A  8  D3 00 00 00 00 00 00 00 
   545)    230797.1  Rx         000A  8  D4 00 00 00 00 00 00 00 
   546)    240797.3  Rx         000A  8  D5 00 00 00 00 00 00 00 
   547)    250797.5  Rx         000A  8  D6 00 00 00 00 00 00 00 
   548)    260797.8  Rx         000A  8  D7 00 00 00 00 00 00 00 
   549)    270798.0  Rx         000A  8  D8 00 00 00 00 00 00 00 
   550)    280798.1  Rx         000A  8  D9 00 00 00 00 00 00 00 
   551)    290798.4  Rx         000A  8  DA 00 00 00 00 00 00 00 
   552)    300798.6  Rx         000A  8  DB 00 00 00 00 00 00 00 
   553)    310798.8  Rx         000A  8  DC 00 00 00 00 00 00 00 
   554)    320799.0  Rx         000A  8  DD 00 00 00 00 00 00 00 
   555)    330799.2  Rx         000A  8  DE 00 00 00 00 00 00 00 
   556)    340799.4  Rx         000A  8  DF 00 00 00 00 00 00 00 
   557)    350799.6  Rx         000A  8  E0 00 00 00 00 00 00 00 
   558)    360799.8  Rx         000A  8  E1 00 00 00 00 00 00 00 
   559)    370800.0  Rx         000A  8  E2 00 00 00 00 00 00 00 
   560)    380800.2  Rx         000A  8  E3 00 00 00 00 00 00 00 
   561)    390800.5  Rx         000A  8  E4 00 00 00 00 00 00 00 
   562)    400800.7  Rx         000A  8  E5 00 00 00 00 00 00 00 
   563)    410800.9  Rx         000A  8  E6 00 00 00 00 00 00 00 
   564)    420801.1  Rx         000A  8  E7 00 00 00 00 00 00 00 
   565)    430801.3  Rx         000A  8  E8 00 00 00 00 00 00 00 
   566)    440801.5  Rx         000A  8  E9 00 00 00 00 00 00 00 
   567)    450801.7  Rx         000A  8  EA 00 00 00 00 00 00 00 
   568)    460801.9  Rx         000A  8  EB 00 00 00 00 00 00 00 
   569)    470802.1  Rx         000A  8  EC 00 00 00 00 00 00 00 
   570)    480802.3  Rx         000A  8  ED 00 00 00 00 00 00 00 
   571)    490802.6  Rx         000A  8  EE 00 00 00 00 00 00 00 
   572)    500802.8  Rx         000A  8  EF 00 00 00 00 00 00 00 
   573)    510802.9  Rx         000A  8  F0 00 00 00 00 00 00 00 
   574)    520803.1  Rx         000A  8  F1 00 00 00 00 00 00 00 
   575)    530803.4  Rx         000A  8  F2 00 00 00 00 00 00 00 
   576)    540803.5  Rx         000A  8  F3 00 00 00 00 00 00 00 
   577)    550803.8  Rx         000A  8  F4 00 00 00 00 00 00 00 
   578)    560804.0  Rx         000A  8  F5 00 00 00 00 00 00 00 
   579)    570804.2  Rx         000A  8  F6 00 00 00 00 00 00 00 
   580)    576407.0  Rx         0000  8  08 00 00 00 00 00 00 00 
   581)    576407.3  Rx         0010  8  01 00 00 00 00 00 00 00 
   582)    576417.3  Rx         0011  8  00 00 00 00 00 00 00 00 
   583)    576417.6  Rx         0012  8  30 31 32 33 34 35 36 37 
   584)    576428.4  Rx         0012  8  38 39 FF FF FF FF FF FF 
   585)    576439.3  Rx         0012  8  FF FF FF FF FF FF FF FF 
   586)    576450.3  Rx         0012  8  FF FF FF FF FF FF FF FF 
   587)    576461.3  Rx         0012  8  FF FF FF FF FF FF FF FF 
   588)    576472.3  Rx         0012  8  FF FF FF FF FF FF FF FF 
   589)    576483.4  Rx         0012  8  FF FF FF FF FF FF FF FF 
   590)    576494.4  Rx         0012  8  FF FF FF FF FF FF FF FF 
   591)    576505.3  Rx         0012  8  FF FF FF FF FF FF FF FF 
   592)    576516.3  Rx         0012  8  FF FF FF FF FF FF FF FF 
   593)    576527.3  Rx         0012  8  FF FF FF FF FF FF FF FF 
   594)    576538.3  Rx         0012  8  FF FF FF FF FF FF FF FF 
   595)    576549.4  Rx         0012  8  FF FF FF FF FF FF FF FF 
   596)    576560.3  Rx         0012  8  FF FF FF FF FF FF FF FF 
   597)    576571.3  Rx         0012  8  FF FF FF FF FF FF FF FF 
   598)    576582.3  Rx         0012  8  FF FF FF FF FF FF FF FF 
   599)    576593.3  Rx         0012  8  FF FF FF FF FF FF FF FF 
   600)    576604.4  Rx         0012  8  FF FF FF FF FF FF FF FF 
   601)    576615.4  Rx         0012  8  FF FF FF FF FF FF FF FF 
   602)    576626.3  Rx         0012  8  FF FF FF FF FF FF FF FF 
   603)    576637.3  Rx         0012  8  FF FF FF FF FF FF FF FF 
   604)    576648.3  Rx         0012  8  FF FF FF FF FF FF FF FF 
   605)    576659.3  Rx         0012  8  FF FF FF FF FF FF FF FF 
   606)    576670.4  Rx         0012  8  FF FF FF FF FF FF FF FF 
   607)    576681.4  Rx         0012  8  FF FF FF FF FF FF FF FF 
   608)    576692.3  Rx         0012  8  FF FF FF FF FF FF FF FF 
   609)    576703.3  Rx         0012  8  FF FF FF FF FF FF FF FF 
   610)    576714.3  Rx         0012  8  FF FF FF FF FF FF FF FF 
   611)    576725.4  Rx         0012  8  FF FF FF FF FF FF FF FF 
   612)    576736.4  Rx         0012  8  FF FF FF FF FF FF FF FF 
   613)    576747.3  Rx         0012  8  FF FF FF FF FF FF FF FF 
   614)    576758.3  Rx         0012  8  FF FF FF FF FF FF FF FF 
   615)    576769.3  Rx         0012  8  FF FF FF FF FF FF FF FF 
   616)    576780.3  Rx         0012  8  FF FF FF FF FF FF FF FF 
   617)    576791.4  Rx         0012  8  FF FF FF FF FF FF FF FF 
   618)    576802.4  Rx         0012  8  FF FF FF FF FF FF FF FF 
   619)    576813.3  Rx         0012  8  FF FF FF FF FF FF FF FF 
   620)    576824.3  Rx         0012  8  FF FF FF FF FF FF FF FF 
   621)    576835.3  Rx         0012  8  FF FF FF FF FF FF FF FF 
   622)    576846.4  Rx         0012  8  FF FF FF FF FF FF FF FF 
   623)    576857.4  Rx         0012  8  FF FF FF FF FF FF FF FF 
   624)    576868.4  Rx         0012  8  FF FF FF FF FF FF FF FF 
   625)    576879.4  Rx         0012  8  FF FF FF FF FF FF FF FF 
   626)    576890.4  Rx         0012  8  FF FF FF FF FF FF FF FF 
   627)    576901.4  Rx         0012  8  FF FF FF FF FF FF FF FF 
   628)    576912.4  Rx         0012  8  FF FF FF FF FF FF FF FF 
   629)    576923.4  Rx         0012  8  FF FF FF FF FF FF FF FF 
   630)    576934.4  Rx         0012  8  FF FF FF FF FF FF FF FF 
   631)    576945.4  Rx         0012  8  FF FF FF FF FF FF FF FF 
   632)    576956.4  Rx         0012  8  FF FF FF FF FF FF FF FF 
   633)    576967.4  Rx         0012  8  FF FF FF FF FF FF FF FF 
   634)    576978.4  Rx         0012  8  FF FF FF FF FF FF FF FF 
   635)    576989.4  Rx         0012  8  FF FF FF FF FF FF FF FF 
   636)    577000.4  Rx         0012  8  FF FF FF FF FF FF FF FF 
   637)    577011.4  Rx         0012  8  FF FF FF FF FF FF FF FF 
   638)    577022.4  Rx         0012  8  FF FF FF FF FF FF FF FF 
   639)    577033.4  Rx         0012  8  FF FF FF FF FF FF FF FF 
   640)    577044.4  Rx         0012  8  FF FF FF FF FF FF FF FF 
   641)    577055.4  Rx         0012  8  FF FF FF FF FF FF FF FF 
   642)    577066.4  Rx         0012  8  FF FF FF FF FF FF FF FF 
   643)    577077.4  Rx         0012  8  FF FF FF FF FF FF FF FF 
   644)    577088.4  Rx         0012  8  FF FF FF FF FF FF FF FF 
   645)    577099.4  Rx         0012  8  FF FF FF FF FF FF FF FF 
   646)    577110.4  Rx         0012  8  FF FF FF FF FF FF FF FF 
   647)    577121.4  Rx         0012  8  FF FF FF FF FF FF FF FF 
   648)    577132.4  Rx         0012  8  FF FF FF FF FF FF FF FF 
   649)    577143.4  Rx         0012  8  FF FF FF FF FF FF FF FF 
   650)    577154.4  Rx         0012  8  FF FF FF FF FF FF FF FF 
   651)    577165.4  Rx         0012  8  FF FF FF FF FF FF FF FF 
   652)    577176.4  Rx         0012  8  FF FF FF FF FF FF FF FF 
   653)    577187.4  Rx         0012  8  FF FF FF FF FF FF FF FF 
   654)    577198.4  Rx         0012  8  FF FF FF FF FF FF FF FF 
   655)    577209.4  Rx         0012  8  FF FF FF FF FF FF FF FF 
   656)    577220.4  Rx         0012  8  FF FF FF FF FF FF FF FF 
   657)    577231.4  Rx         0012  8  FF FF FF FF FF FF FF FF 
   658)    577242.4  Rx         0012  8  FF FF FF FF FF FF FF FF 
   659)    577253.4  Rx         0012  8  FF FF FF FF FF FF FF FF 
   660)    577264.4  Rx         0012  8  FF FF FF FF FF FF FF FF 
   661)    577275.4  Rx         0012  8  FF FF FF FF FF FF FF FF 
   662)    577286.4  Rx         0012  8  FF FF FF FF FF FF FF FF 
   663)    577297.4  Rx         0012  8  FF FF FF FF FF FF FF FF 
   664)    577308.4  Rx         0012  8  FF FF FF FF FF FF FF FF 
   665)    577319.4  Rx         0012  8  FF FF FF FF FF FF FF FF 
   666)    577330.4  Rx         0012  8  FF FF FF FF FF FF FF FF 
   667)    577341.4  Rx         0012  8  FF FF FF FF FF FF FF FF 
   668)    577352.4  Rx         0012  8  FF FF FF FF FF FF FF FF 
   669)    577363.4  Rx         0012  8  FF FF FF FF FF FF FF FF 
   670)    577374.4  Rx         0012  8  FF FF FF FF FF FF FF FF 
   671)    577385.4  Rx         0012  8  FF FF FF FF FF FF FF FF 
   672)    577396.4  Rx         0012  8  FF FF FF FF FF FF FF FF 
   673)    577407.4  Rx         0012  8  FF FF FF FF FF FF FF FF 
   674)    577418.4  Rx         0012  8  FF FF FF FF FF FF FF FF 
   675)    577429.4  Rx         0012  8  FF FF FF FF FF FF FF FF 
   676)    577440.4  Rx         0012  8  FF FF FF FF FF FF FF FF 
   677)    577451.4  Rx         0012  8  FF FF FF FF FF FF FF FF 
   678)    577462.4  Rx         0012  8  FF FF FF FF FF FF FF FF 
   679)    577473.4  Rx         0012  8  FF FF FF FF FF FF FF FF 
   680)    577484.4  Rx         0012  8  FF FF FF FF FF FF FF FF 
   681)    577495.4  Rx         0012  8  FF FF FF FF FF FF FF FF 
   682)    577506.4  Rx         0012  8  FF FF FF FF FF FF FF FF 
   683)    577517.4  Rx         0012  8  FF FF FF FF FF FF FF FF 
   684)    577528.4  Rx         0012  8  FF FF FF FF FF FF FF FF 
   685)    577539.4  Rx         0012  8  FF FF FF FF FF FF FF FF 
   686)    577550.4  Rx         0012  8  FF FF FF FF FF FF FF FF 
   687)    577561.4  Rx         0012  8  FF FF FF FF FF FF FF FF 
   688)    577572.4  Rx         0012  8  FF FF FF FF FF FF FF FF 
   689)    577583.4  Rx         0012  8  FF FF FF FF FF FF FF FF 
   690)    577594.4  Rx         0012  8  FF FF FF FF FF FF FF FF 
   691)    577605.4  Rx         0012  8  FF FF FF FF FF FF FF FF 
   692)    577616.4  Rx         0012  8  FF FF FF FF FF FF FF FF 
   693)    577627.4  Rx         0012  8  FF FF FF FF FF FF FF FF 
   694)    577638.4  Rx         0012  8  FF FF FF FF FF FF FF FF 
   695)    577649.4  Rx         0012  8  FF FF FF FF FF FF FF FF 
   696)    577660.4  Rx         0012  8  FF FF FF FF FF FF FF FF 
   697)    577671.4  Rx         0012  8  FF FF FF FF FF FF FF FF 
   698)    577682.4  Rx         0012  8  FF FF FF FF FF FF FF FF 
   699)    577693.4  Rx         0012  8  FF FF FF FF FF FF FF FF 
   700)    577704.4  Rx         0012  8  FF FF FF FF FF FF FF FF 
   701)    577715.4  Rx         0012  8  FF FF FF FF FF FF FF FF 
   702)    577726.4  Rx         0012  8  FF FF FF FF FF FF FF FF 
   703)    577737.4  Rx         0012  8  FF FF FF FF FF FF FF FF 
   704)    577748.4  Rx         0012  8  FF FF FF FF FF FF FF FF 
   705)    577759.4  Rx         0012  8  FF FF FF FF FF FF FF FF 
   706)    577770.4  Rx         0012  8  FF FF FF FF FF FF FF FF 
   707)    577781.4  Rx         0012  8  FF FF FF FF FF FF FF FF 
   708)    577792.4  Rx         0012  8  FF FF FF FF FF FF FF FF 
   709)    577803.4  Rx         0012  8  FF FF FF FF FF FF FF FF 
   710)    577814.4  Rx         0012  8  FF FF FF FF FF FF FF FF 
   711)    577825.4  Rx         0012  8  FF FF FF FF FF FF FF FF 
   712)    577836.4  Rx         0012  8  FF FF FF FF FF FF FF FF 
   713)    577847.4  Rx         0012  8  FF FF FF FF FF FF FF FF 
   714)    577858.3  Rx         0012  8  FF FF FF FF FF FF FF FF 
   715)    577869.4  Rx         0012  8  FF FF FF FF FF FF FF FF 
   716)    577880.4  Rx         0012  8  FF FF FF FF FF FF FF FF 
   717)    577891.4  Rx         0012  8  FF FF FF FF FF FF FF FF 
   718)    577902.4  Rx         0012  8  FF FF FF FF FF FF FF FF 
   719)    577913.4  Rx         0012  8  FF FF FF FF FF FF FF FF 
   720)    577924.3  Rx         0012  8  FF FF FF FF FF FF FF FF 
   721)    577935.4  Rx         0012  8  FF FF FF FF FF FF FF FF 
   722)    577946.4  Rx         0012  8  FF FF FF FF FF FF FF FF 
   723)    577957.4  Rx         0012  8  FF FF FF FF FF FF FF FF 
   724)    577968.4  Rx         0012  8  FF FF FF FF FF FF FF FF 
   725)    577979.3  Rx         0012  8  FF FF FF FF FF FF FF FF 
   726)    577990.4  Rx         0012  8  FF FF FF FF FF FF FF FF 
   727)    578001.4  Rx         0012  8  FF FF FF FF FF FF FF FF 
   728)    578012.4  Rx         0012  8  FF FF FF FF FF FF FF FF 
   729)    578023.4  Rx         0012  8  FF FF FF FF FF FF FF FF 
   730)    578034.4  Rx         0012  8  FF FF FF FF FF FF FF FF 
   731)    578045.3  Rx         0012  8  FF FF FF FF FF FF FF FF 
   732)    578056.4  Rx         0012  8  FF FF FF FF FF FF FF FF 
   733)    578067.4  Rx         0012  8  FF FF FF FF FF FF FF FF 
   734)    578078.4  Rx         0012  8  FF FF FF FF FF FF FF FF 
   735)    578089.4  Rx         0012  8  FF FF FF FF FF FF FF FF 
   736)    578100.4  Rx         0012  8  FF FF FF FF FF FF FF FF 
   737)    578111.4  Rx         0012  8  FF FF FF FF FF FF FF FF 
   738)    578122.4  Rx         0012  8  FF FF FF FF FF FF FF FF 
   739)    578133.4  Rx         0012  8  FF FF FF FF FF FF FF FF 
   740)    578144.4  Rx         0012  8  FF FF FF FF FF FF FF FF 
   741)    578155.4  Rx         0012  8  FF FF FF FF FF FF FF FF 
   742)    578166.4  Rx         0012  8  FF FF FF FF FF FF FF FF 
   743)    578177.4  Rx         0012  8  FF FF FF FF FF FF FF FF 
   744)    578188.4  Rx         0012  8  FF FF FF FF FF FF FF FF 
   745)    578199.4  Rx         0012  8  FF FF FF FF FF FF FF FF 
   746)    578210.4  Rx         0012  8  FF FF FF FF FF FF FF FF 
   747)    578221.4  Rx         0012  8  FF FF FF FF FF FF FF FF 
   748)    578232.4  Rx         0012  8  FF FF FF FF FF FF FF FF 
   749)    578243.4  Rx         0012  8  FF FF FF FF FF FF FF FF 
   750)    578254.4  Rx         0012  8  FF FF FF FF FF FF FF FF 
   751)    578265.4  Rx         0012  8  FF FF FF FF FF FF FF FF 
   752)    578276.4  Rx         0012  8  FF FF FF FF FF FF FF FF 
   753)    578287.4  Rx         0012  8  FF FF FF FF FF FF FF FF 
   754)    578298.4  Rx         0012  8  FF FF FF FF FF FF FF FF 
   755)    578309.4  Rx         0012  8  FF FF FF FF FF FF FF FF 
   756)    578320.4  Rx         0012  8  FF FF FF FF FF FF FF FF 
   757)    578331.4  Rx         0012  8  FF FF FF FF FF FF FF FF 
   758)    578342.4  Rx         0012  8  FF FF FF FF FF FF FF FF 
   759)    578353.4  Rx         0012  8  FF FF FF FF FF FF FF FF 
   760)    578364.4  Rx         0012  8  FF FF FF FF FF FF FF FF 
   761)    578375.4  Rx         0012  8  FF FF FF FF FF FF FF FF 
   762)    578386.4  Rx         0012  8  FF FF FF FF FF FF FF FF 
   763)    578397.4  Rx         0012  8  FF FF FF FF FF FF FF FF 
   764)    578408.4  Rx         0012  8  FF FF FF FF FF FF FF FF 
   765)    578419.4  Rx         0012  8  FF FF FF FF FF FF FF FF 
   766)    578430.4  Rx         0012  8  FF FF FF FF FF FF FF FF 
   767)    578441.4  Rx         0012  8  FF FF FF FF FF FF FF FF 
   768)    578452.4  Rx         0012  8  FF FF FF FF FF FF FF FF 
   769)    578463.4  Rx         0012  8  FF FF FF FF FF FF FF FF 
   770)    578474.4  Rx         0012  8  FF FF FF FF FF FF FF FF 
   771)    578485.4  Rx         0012  8  FF FF FF FF FF FF FF FF 
   772)    578496.4  Rx         0012  8  FF FF FF FF FF FF FF FF 
   773)    578507.4  Rx         0012  8  FF FF FF FF FF FF FF FF 
   774)    578518.4  Rx         0012  8  FF FF FF FF FF FF FF FF 
   775)    578529.4  Rx         0012  8  FF FF FF FF FF FF FF FF 
   776)    578540.4  Rx         0012  8  FF FF FF FF FF FF FF FF 
   777)    578551.4  Rx         0012  8  FF FF FF FF FF FF FF FF 
   778)    578562.4  Rx         0012  8  FF FF FF FF FF FF FF FF 
   779)    578573.4  Rx         0012  8  FF FF FF FF FF FF FF FF 
   780)    578584.4  Rx         0012  8  FF FF FF FF FF FF FF FF 
   781)    578595.4  Rx         0012  8  FF FF FF FF FF FF FF FF 
   782)    578606.4  Rx         0012  8  FF FF FF FF FF FF FF FF 
   783)    578617.4  Rx         0012  8  FF FF FF FF FF FF FF FF 
   784)    578628.4  Rx         0012  8  FF FF FF FF FF FF FF FF 
   785)    578639.4  Rx         0012  8  FF FF FF FF FF FF FF FF 
   786)    578650.4  Rx         0012  8  FF FF FF FF FF FF FF FF 
   787)    578661.4  Rx         0012  8  FF FF FF FF FF FF FF FF 
   788)    578672.4  Rx         0012  8  FF FF FF FF FF FF FF FF 
   789)    578683.4  Rx         0012  8  FF FF FF FF FF FF FF FF 
   790)    578694.4  Rx         0012  8  FF FF FF FF FF FF FF FF 
   791)    578705.4  Rx         0012  8  FF FF FF FF FF FF FF FF 
   792)    578716.4  Rx         0012  8  FF FF FF FF FF FF FF FF 
   793)    578727.4  Rx         0012  8  FF FF FF FF FF FF FF FF 
   794)    578738.4  Rx         0012  8  FF FF FF FF FF FF FF FF 
   795)    578749.4  Rx         0012  8  FF FF FF FF FF FF FF FF 
   796)    578760.4  Rx         0012  8  FF FF FF FF FF FF FF FF 
   797)    578771.4  Rx         0012  8  FF FF FF FF FF FF FF FF 
   798)    578782.4  Rx         0012  8  FF FF FF FF FF FF FF FF 
   799)    578793.4  Rx         0012  8  FF FF FF FF FF FF FF FF 
   800)    578804.4  Rx         0012  8  FF FF FF FF FF FF FF FF 
   801)    578815.4  Rx         0012  8  FF FF FF FF FF FF FF FF 
   802)    578826.4  Rx         0012  8  FF FF FF FF FF FF FF FF 
   803)    578837.4  Rx         0012  8  FF FF FF FF FF FF FF FF 
   804)    578848.4  Rx         0012  8  FF FF FF FF FF FF FF FF 
   805)    578859.3  Rx         0012  8  FF FF FF FF FF FF FF FF 
   806)    578870.3  Rx         0012  8  FF FF FF FF FF FF FF FF 
   807)    578881.3  Rx         0012  8  FF FF FF FF FF FF FF FF 
   808)    578892.3  Rx         0012  8  FF FF FF FF FF FF FF FF 
   809)    578903.3  Rx         0012  8  FF FF FF FF FF FF FF FF 
   810)    578914.3  Rx         0012  8  FF FF FF FF FF FF FF FF 
   811)    578925.3  Rx         0012  8  FF FF FF FF FF FF FF FF 
   812)    578936.3  Rx         0012  8  FF FF FF FF FF FF FF FF 
   813)    578947.3  Rx         0012  8  FF FF FF FF FF FF FF FF 
   814)    578958.3  Rx         0012  8  FF FF FF FF FF FF FF FF 
   815)    578969.3  Rx         0012  8  FF FF FF FF FF FF FF FF 
   816)    578980.3  Rx         0012  8  FF FF FF FF FF FF FF FF 
   817)    578991.3  Rx         0012  8  FF FF FF FF FF FF FF FF 
   818)    579002.3  Rx         0012  8  FF FF FF FF FF FF FF FF 
   819)    579013.3  Rx         0012  8  FF FF FF FF FF FF FF FF 
   820)    579024.3  Rx         0012  8  FF FF FF FF FF FF FF FF 
   821)    579035.3  Rx         0012  8  FF FF FF FF FF FF FF FF 
   822)    579046.3  Rx         0012  8  FF FF FF FF FF FF FF FF 
   823)    579057.3  Rx         0012  8  FF FF FF FF FF FF FF FF 
   824)    579068.3  Rx         0012  8  FF FF FF FF FF FF FF FF 
   825)    579079.3  Rx         0012  8  FF FF FF FF FF FF FF FF 
   826)    579090.3  Rx         0012  8  FF FF FF FF FF FF FF FF 
   827)    579101.3  Rx         0012  8  FF FF FF FF FF FF FF FF 
   828)    579112.3  Rx         0012  8  FF FF FF FF FF FF FF FF 
   829)    579123.3  Rx         0012  8  FF FF FF FF FF FF FF FF 
   830)    579134.3  Rx         0012  8  FF FF FF FF FF FF FF FF 
   831)    579145.3  Rx         0012  8  FF FF FF FF FF FF FF FF 
   832)    579156.3  Rx         0012  8  FF FF FF FF FF FF FF FF 
   833)    579167.3  Rx         0012  8  FF FF FF FF FF FF FF FF 
   834)    579178.3  Rx         0012  8  FF FF FF FF FF FF FF FF 
   835)    579189.3  Rx         0012  8  FF FF FF FF FF FF FF FF 
   836)    579200.3  Rx         0012  8  FF FF FF FF FF FF FF FF 
   837)    579211.4  Rx         0012  8  FF FF FF FF FF FF FF FF 
   838)    579222.3  Rx         0012  8  FF FF FF FF FF FF FF FF 
   839)    579334.3  Rx         0013  8  00 FF FF FF FF FF FF FF 
   840)    579435.4  Rx         0000  8  07 FF FF FF FF FF FF FF 
   841)    580917.3  Rx         0000  8  08 00 00 00 00 00 00 00 
   842)    580917.5  Rx         0010  8  01 00 00 00 00 00 00 00 
   843)    580928.3  Rx         0011  8  00 00 00 00 00 00 00 00 
   844)    580928.6  Rx         0012  8  30 31 32 33 34 35 36 37 
   845)    580939.3  Rx         0012  8  38 39 FF FF FF FF FF FF 
   846)    580950.3  Rx         0012  8  FF FF FF FF FF FF FF FF 
   847)    580961.3  Rx         0012  8  FF FF FF FF FF FF FF FF 
   848)    580972.3  Rx         0012  8  FF FF FF FF FF FF FF FF 
   849)    580983.3  Rx         0012  8  FF FF FF FF FF FF FF FF 
   850)    580994.3  Rx         0012  8  FF FF FF FF FF FF FF FF 
   851)    581005.3  Rx         0012  8  FF FF FF FF FF FF FF FF 
   852)    581016.3  Rx         0012  8  FF FF FF FF FF FF FF FF 
   853)    581027.4  Rx         0012  8  FF FF FF FF FF FF FF FF 
   854)    581038.3  Rx         0012  8  FF FF FF FF FF FF FF FF 
   855)    581049.3  Rx         0012  8  FF FF FF FF FF FF FF FF 
   856)    581060.3  Rx         0012  8  FF FF FF FF FF FF FF FF 
   857)    581071.3  Rx         0012  8  FF FF FF FF FF FF FF FF 
   858)    581082.3  Rx         0012  8  FF FF FF FF FF FF FF FF 
   859)    581093.3  Rx         0012  8  FF FF FF FF FF FF FF FF 
   860)    581104.3  Rx         0012  8  FF FF FF FF FF FF FF FF 
   861)    581115.3  Rx         0012  8  FF FF FF FF FF FF FF FF 
   862)    581126.3  Rx         0012  8  FF FF FF FF FF FF FF FF 
   863)    581137.3  Rx         0012  8  FF FF FF FF FF FF FF FF 
   864)    581148.4  Rx         0012  8  FF FF FF FF FF FF FF FF 
   865)    581159.3  Rx         0012  8  FF FF FF FF FF FF FF FF 
   866)    581170.3  Rx         0012  8  FF FF FF FF FF FF FF FF 
   867)    581181.3  Rx         0012  8  FF FF FF FF FF FF FF FF 
   868)    581192.3  Rx         0012  8  FF FF FF FF FF FF FF FF 
   869)    581203.3  Rx         0012  8  FF FF FF FF FF FF FF FF 
   870)    581214.4  Rx         0012  8  FF FF FF FF FF FF FF FF 
   871)    581225.3  Rx         0012  8  FF FF FF FF FF FF FF FF 
   872)    581236.3  Rx         0012  8  FF FF FF FF FF FF FF FF 
   873)    581247.3  Rx         0012  8  FF FF FF FF FF FF FF FF 
   874)    581258.3  Rx         0012  8  FF FF FF FF FF FF FF FF 
   875)    581269.4  Rx         0012  8  FF FF FF FF FF FF FF FF 
   876)    581280.3  Rx         0012  8  FF FF FF FF FF FF FF FF 
   877)    581291.3  Rx         0012  8  FF FF FF FF FF FF FF FF 
   878)    581302.3  Rx         0012  8  FF FF FF FF FF FF FF FF 
   879)    581313.3  Rx         0012  8  FF FF FF FF FF FF FF FF 
   880)    581324.4  Rx         0012  8  FF FF FF FF FF FF FF FF 
   881)    581335.4  Rx         0012  8  FF FF FF FF FF FF FF FF 
   882)    581346.3  Rx         0012  8  FF FF FF FF FF FF FF FF 
   883)    581357.3  Rx         0012  8  FF FF FF FF FF FF FF FF 
   884)    581368.3  Rx         0012  8  FF FF FF FF FF FF FF FF 
   885)    581379.3  Rx         0012  8  FF FF FF FF FF FF FF FF 
   886)    581390.4  Rx         0012  8  FF FF FF FF FF FF FF FF 
   887)    581401.3  Rx         0012  8  FF FF FF FF FF FF FF FF 
   888)    581412.3  Rx         0012  8  FF FF FF FF FF FF FF FF 
   889)    581423.3  Rx         0012  8  FF FF FF FF FF FF FF FF 
   890)    581434.3  Rx         0012  8  FF FF FF FF FF FF FF FF 
   891)    581445.4  Rx         0012  8  FF FF FF FF FF FF FF FF 
   892)    581456.4  Rx         0012  8  FF FF FF FF FF FF FF FF 
   893)    581467.3  Rx         0012  8  FF FF FF FF FF FF FF FF 
   894)    581478.3  Rx         0012  8  FF FF FF FF FF FF FF FF 
   895)    581489.3  Rx         0012  8  FF FF FF FF FF FF FF FF 
   896)    581500.3  Rx         0012  8  FF FF FF FF FF FF FF FF 
   897)    581511.4  Rx         0012  8  FF FF FF FF FF FF FF FF 
   898)    581522.4  Rx         0012  8  FF FF FF FF FF FF FF FF 
   899)    581533.3  Rx         0012  8  FF FF FF FF FF FF FF FF 
   900)    581544.3  Rx         0012  8  FF FF FF FF FF FF FF FF 
   901)    581555.3  Rx         0012  8  FF FF FF FF FF FF FF FF 
   902)    581566.4  Rx         0012  8  FF FF FF FF FF FF FF FF 
   903)    581577.4  Rx         0012  8  FF FF FF FF FF FF FF FF 
   904)    581588.3  Rx         0012  8  FF FF FF FF FF FF FF FF 
   905)    581599.3  Rx         0012  8  FF FF FF FF FF FF FF FF 
   906)    581610.3  Rx         0012  8  FF FF FF FF FF FF FF FF 
   907)    581621.3  Rx         0012  8  FF FF FF FF FF FF FF FF 
   908)    581632.4  Rx         0012  8  FF FF FF FF FF FF FF FF 
   909)    581643.4  Rx         0012  8  FF FF FF FF FF FF FF FF 
   910)    581654.3  Rx         0012  8  FF FF FF FF FF FF FF FF 
   911)    581665.3  Rx         0012  8  FF FF FF FF FF FF FF FF 
   912)    581676.3  Rx         0012  8  FF FF FF FF FF FF FF FF 
   913)    581687.4  Rx         0012  8  FF FF FF FF FF FF FF FF 
   914)    581698.4  Rx         0012  8  FF FF FF FF FF FF FF FF 
   915)    581709.4  Rx         0012  8  FF FF FF FF FF FF FF FF 
   916)    581720.3  Rx         0012  8  FF FF FF FF FF FF FF FF 
   917)    581731.3  Rx         0012  8  FF FF FF FF FF FF FF FF 
   918)    581742.3  Rx         0012  8  FF FF FF FF FF FF FF FF 
   919)    581753.4  Rx         0012  8  FF FF FF FF FF FF FF FF 
   920)    581764.4  Rx         0012  8  FF FF FF FF FF FF FF FF 
   921)    581775.3  Rx         0012  8  FF FF FF FF FF FF FF FF 
   922)    581786.3  Rx         0012  8  FF FF FF FF FF FF FF FF 
   923)    581797.3  Rx         0012  8  FF FF FF FF FF FF FF FF 
   924)    581808.4  Rx         0012  8  FF FF FF FF FF FF FF FF 
   925)    581819.4  Rx         0012  8  FF FF FF FF FF FF FF FF 
   926)    581830.4  Rx         0012  8  FF FF FF FF FF FF FF FF 
   927)    581841.3  Rx         0012  8  FF FF FF FF FF FF FF FF 
   928)    581852.4  Rx         0012  8  FF FF FF FF FF FF FF FF 
   929)    581863.4  Rx         0012  8  FF FF FF FF FF FF FF FF 
   930)    581874.4  Rx         0012  8  FF FF FF FF FF FF FF FF 
   931)    581885.4  Rx         0012  8  FF FF FF FF FF FF FF FF 
   932)    581896.4  Rx         0012  8  FF FF FF FF FF FF FF FF 
   933)    581907.4  Rx         0012  8  FF FF FF FF FF FF FF FF 
   934)    581918.4  Rx         0012  8  FF FF FF FF FF FF FF FF 
   935)    581929.4  Rx         0012  8  FF FF FF FF FF FF FF FF 
   936)    581940.4  Rx         0012  8  FF FF FF FF FF FF FF FF 
   937)    581951.4  Rx         0012  8  FF FF FF FF FF FF FF FF 
   938)    581962.4  Rx         0012  8  FF FF FF FF FF FF FF FF 
   939)    581973.4  Rx         0012  8  FF FF FF FF FF FF FF FF 
   940)    581984.4  Rx         0012  8  FF FF FF FF FF FF FF FF 
   941)    581995.4  Rx         0012  8  FF FF FF FF FF FF FF FF 
   942)    582006.4  Rx         0012  8  FF FF FF FF FF FF FF FF 
   943)    582017.4  Rx         0012  8  FF FF FF FF FF FF FF FF 
   944)    582028.4  Rx         0012  8  FF FF FF FF FF FF FF FF 
   945)    582039.4  Rx         0012  8  FF FF FF FF FF FF FF FF 
   946)    582050.4  Rx         0012  8  FF FF FF FF FF FF FF FF 
   947)    582061.4  Rx         0012  8  FF FF FF FF FF FF FF FF 
   948)    582072.4  Rx         0012  8  FF FF FF FF FF FF FF FF 
   949)    582083.4  Rx         0012  8  FF FF FF FF FF FF FF FF 
   950)    582094.4  Rx         0012  8  FF FF FF FF FF FF FF FF 
   951)    582105.4  Rx         0012  8  FF FF FF FF FF FF FF FF 
   952)    582116.4  Rx         0012  8  FF FF FF FF FF FF FF FF 
   953)    582127.4  Rx         0012  8  FF FF FF FF FF FF FF FF 
   954)    582138.4  Rx         0012  8  FF FF FF FF FF FF FF FF 
   955)    582149.4  Rx         0012  8  FF FF FF FF FF FF FF FF 
   956)    582160.4  Rx         0012  8  FF FF FF FF FF FF FF FF 
   957)    582171.4  Rx         0012  8  FF FF FF FF FF FF FF FF 
   958)    582182.4  Rx         0012  8  FF FF FF FF FF FF FF FF 
   959)    582193.4  Rx         0012  8  FF FF FF FF FF FF FF FF 
   960)    582204.4  Rx         0012  8  FF FF FF FF FF FF FF FF 
   961)    582215.4  Rx         0012  8  FF FF FF FF FF FF FF FF 
   962)    582226.4  Rx         0012  8  FF FF FF FF FF FF FF FF 
   963)    582237.4  Rx         0012  8  FF FF FF FF FF FF FF FF 
   964)    582248.4  Rx         0012  8  FF FF FF FF FF FF FF FF 
   965)    582259.4  Rx         0012  8  FF FF FF FF FF FF FF FF 
   966)    582270.4  Rx         0012  8  FF FF FF FF FF FF FF FF 
   967)    582281.4  Rx         0012  8  FF FF FF FF FF FF FF FF 
   968)    582292.4  Rx         0012  8  FF FF FF FF FF FF FF FF 
   969)    582303.4  Rx         0012  8  FF FF FF FF FF FF FF FF 
   970)    582314.4  Rx         0012  8  FF FF FF FF FF FF FF FF 
   971)    582325.4  Rx         0012  8  FF FF FF FF FF FF FF FF 
   972)    582336.4  Rx         0012  8  FF FF FF FF FF FF FF FF 
   973)    582347.4  Rx         0012  8  FF FF FF FF FF FF FF FF 
   974)    582358.4  Rx         0012  8  FF FF FF FF FF FF FF FF 
   975)    582369.4  Rx         0012  8  FF FF FF FF FF FF FF FF 
   976)    582380.4  Rx         0012  8  FF FF FF FF FF FF FF FF 
   977)    582391.4  Rx         0012  8  FF FF FF FF FF FF FF FF 
   978)    582402.4  Rx         0012  8  FF FF FF FF FF FF FF FF 
   979)    582413.4  Rx         0012  8  FF FF FF FF FF FF FF FF 
   980)    582424.4  Rx         0012  8  FF FF FF FF FF FF FF FF 
   981)    582435.4  Rx         0012  8  FF FF FF FF FF FF FF FF 
   982)    582446.4  Rx         0012  8  FF FF FF FF FF FF FF FF 
   983)    582457.4  Rx         0012  8  FF FF FF FF FF FF FF FF 
   984)    582468.4  Rx         0012  8  FF FF FF FF FF FF FF FF 
   985)    582479.4  Rx         0012  8  FF FF FF FF FF FF FF FF 
   986)    582490.4  Rx         0012  8  FF FF FF FF FF FF FF FF 
   987)    582501.4  Rx         0012  8  FF FF FF FF FF FF FF FF 
   988)    582512.4  Rx         0012  8  FF FF FF FF FF FF FF FF 
   989)    582523.4  Rx         0012  8  FF FF FF FF FF FF FF FF 
   990)    582534.4  Rx         0012  8  FF FF FF FF FF FF FF FF 
   991)    582545.4  Rx         0012  8  FF FF FF FF FF FF FF FF 
   992)    582556.4  Rx         0012  8  FF FF FF FF FF FF FF FF 
   993)    582567.4  Rx         0012  8  FF FF FF FF FF FF FF FF 
   994)    582578.4  Rx         0012  8  FF FF FF FF FF FF FF FF 
   995)    582589.4  Rx         0012  8  FF FF FF FF FF FF FF FF 
   996)    582600.4  Rx         0012  8  FF FF FF FF FF FF FF FF 
   997)    582611.4  Rx         0012  8  FF FF FF FF FF FF FF FF 
   998)    582622.4  Rx         0012  8  FF FF FF FF FF FF FF FF 
   999)    582633.4  Rx         0012  8  FF FF FF FF FF FF FF FF 
  1000)    582644.4  Rx         0012  8  FF FF FF FF FF FF FF FF 
  1001)    582655.4  Rx         0012  8  FF FF FF FF FF FF FF FF 
  1002)    582666.4  Rx         0012  8  FF FF FF FF FF FF FF FF 
  1003)    582677.4  Rx         0012  8  FF FF FF FF FF FF FF FF 
  1004)    582688.4  Rx         0012  8  FF FF FF FF FF FF FF FF 
  1005)    582699.4  Rx         0012  8  FF FF FF FF FF FF FF FF 
  1006)    582710.4  Rx         0012  8  FF FF FF FF FF FF FF FF 
  1007)    582721.4  Rx         0012  8  FF FF FF FF FF FF FF FF 
  1008)    582732.4  Rx         0012  8  FF FF FF FF FF FF FF FF 
  1009)    582743.4  Rx         0012  8  FF FF FF FF FF FF FF FF 
  1010)    582754.4  Rx         0012  8  FF FF FF FF FF FF FF FF 
  1011)    582765.4  Rx         0012  8  FF FF FF FF FF FF FF FF 
  1012)    582776.4  Rx         0012  8  FF FF FF FF FF FF FF FF 
  1013)    582787.4  Rx         0012  8  FF FF FF FF FF FF FF FF 
  1014)    582798.4  Rx         0012  8  FF FF FF FF FF FF FF FF 
  1015)    582809.4  Rx         0012  8  FF FF FF FF FF FF FF FF 
  1016)    582820.4  Rx         0012  8  FF FF FF FF FF FF FF FF 
  1017)    582831.4  Rx         0012  8  FF FF FF FF FF FF FF FF 
  1018)    582842.4  Rx         0012  8  FF FF FF FF FF FF FF FF 
  1019)    582853.4  Rx         0012  8  FF FF FF FF FF FF FF FF 
  1020)    582864.4  Rx         0012  8  FF FF FF FF FF FF FF FF 
  1021)    582875.4  Rx         0012  8  FF FF FF FF FF FF FF FF 
  1022)    582886.4  Rx         0012  8  FF FF FF FF FF FF FF FF 
  1023)    582897.4  Rx         0012  8  FF FF FF FF FF FF FF FF 
  1024)    582908.4  Rx         0012  8  FF FF FF FF FF FF FF FF 
  1025)    582919.4  Rx         0012  8  FF FF FF FF FF FF FF FF 
  1026)    582930.4  Rx         0012  8  FF FF FF FF FF FF FF FF 
  1027)    582941.4  Rx         0012  8  FF FF FF FF FF FF FF FF 
  1028)    582952.4  Rx         0012  8  FF FF FF FF FF FF FF FF 
  1029)    582963.4  Rx         0012  8  FF FF FF FF FF FF FF FF 
  1030)    582974.4  Rx         0012  8  FF FF FF FF FF FF FF FF 
  1031)    582985.4  Rx         0012  8  FF FF FF FF FF FF FF FF 
  1032)    582996.4  Rx         0012  8  FF FF FF FF FF FF FF FF 
  1033)    583007.4  Rx         0012  8  FF FF FF FF FF FF FF FF 
  1034)    583018.4  Rx         0012  8  FF FF FF FF FF FF FF FF 
  1035)    583029.4  Rx         0012  8  FF FF FF FF FF FF FF FF 
  1036)    583040.4  Rx         0012  8  FF FF FF FF FF FF FF FF 
  1037)    583051.4  Rx         0012  8  FF FF FF FF FF FF FF FF 
  1038)    583062.5  Rx         0012  8  FF FF FF FF FF FF FF FF 
  1039)    583073.4  Rx         0012  8  FF FF FF FF FF FF FF FF 
  1040)    583084.4  Rx         0012  8  FF FF FF FF FF FF FF FF 
  1041)    583095.4  Rx         0012  8  FF FF FF FF FF FF FF FF 
  1042)    583106.4  Rx         0012  8  FF FF FF FF FF FF FF FF 
  1043)    583117.4  Rx         0012  8  FF FF FF FF FF FF FF FF 
  1044)    583128.5  Rx         0012  8  FF FF FF FF FF FF FF FF 
  1045)    583139.4  Rx         0012  8  FF FF FF FF FF FF FF FF 
  1046)    583150.4  Rx         0012  8  FF FF FF FF FF FF FF FF 
  1047)    583161.4  Rx         0012  8  FF FF FF FF FF FF FF FF 
  1048)    583172.4  Rx         0012  8  FF FF FF FF FF FF FF FF 
  1049)    583183.5  Rx         0012  8  FF FF FF FF FF FF FF FF 
  1050)    583194.4  Rx         0012  8  FF FF FF FF FF FF FF FF 
  1051)    583205.4  Rx         0012  8  FF FF FF FF FF FF FF FF 
  1052)    583216.4  Rx         0012  8  FF FF FF FF FF FF FF FF 
  1053)    583227.4  Rx         0012  8  FF FF FF FF FF FF FF FF 
  1054)    583238.4  Rx         0012  8  FF FF FF FF FF FF FF FF 
  1055)    583249.5  Rx         0012  8  FF FF FF FF FF FF FF FF 
  1056)    583260.4  Rx         0012  8  FF FF FF FF FF FF FF FF 
  1057)    583271.4  Rx         0012  8  FF FF FF FF FF FF FF FF 
  1058)    583282.4  Rx         0012  8  FF FF FF FF FF FF FF FF 
  1059)    583293.4  Rx         0012  8  FF FF FF FF FF FF FF FF 
  1060)    583304.5  Rx         0012  8  FF FF FF FF FF FF FF FF 
  1061)    583315.4  Rx         0012  8  FF FF FF FF FF FF FF FF 
  1062)    583326.4  Rx         0012  8  FF FF FF FF FF FF FF FF 
  1063)    583337.4  Rx         0012  8  FF FF FF FF FF FF FF FF 
  1064)    583348.4  Rx         0012  8  FF FF FF FF FF FF FF FF 
  1065)    583359.5  Rx         0012  8  FF FF FF FF FF FF FF FF 
  1066)    583370.5  Rx         0012  8  FF FF FF FF FF FF FF FF 
  1067)    583381.4  Rx         0012  8  FF FF FF FF FF FF FF FF 
  1068)    583392.4  Rx         0012  8  FF FF FF FF FF FF FF FF 
  1069)    583403.4  Rx         0012  8  FF FF FF FF FF FF FF FF 
  1070)    583414.4  Rx         0012  8  FF FF FF FF FF FF FF FF 
  1071)    583425.5  Rx         0012  8  FF FF FF FF FF FF FF FF 
  1072)    583436.4  Rx         0012  8  FF FF FF FF FF FF FF FF 
  1073)    583447.4  Rx         0012  8  FF FF FF FF FF FF FF FF 
  1074)    583458.4  Rx         0012  8  FF FF FF FF FF FF FF FF 
  1075)    583469.4  Rx         0012  8  FF FF FF FF FF FF FF FF 
  1076)    583480.5  Rx         0012  8  FF FF FF FF FF FF FF FF 
  1077)    583491.5  Rx         0012  8  FF FF FF FF FF FF FF FF 
  1078)    583502.4  Rx         0012  8  FF FF FF FF FF FF FF FF 
  1079)    583513.4  Rx         0012  8  FF FF FF FF FF FF FF FF 
  1080)    583524.4  Rx         0012  8  FF FF FF FF FF FF FF FF 
  1081)    583535.4  Rx         0012  8  FF FF FF FF FF FF FF FF 
  1082)    583546.5  Rx         0012  8  FF FF FF FF FF FF FF FF 
  1083)    583557.5  Rx         0012  8  FF FF FF FF FF FF FF FF 
  1084)    583568.4  Rx         0012  8  FF FF FF FF FF FF FF FF 
  1085)    583579.4  Rx         0012  8  FF FF FF FF FF FF FF FF 
  1086)    583590.4  Rx         0012  8  FF FF FF FF FF FF FF FF 
  1087)    583601.5  Rx         0012  8  FF FF FF FF FF FF FF FF 
  1088)    583612.5  Rx         0012  8  FF FF FF FF FF FF FF FF 
  1089)    583623.4  Rx         0012  8  FF FF FF FF FF FF FF FF 
  1090)    583634.4  Rx         0012  8  FF FF FF FF FF FF FF FF 
  1091)    583645.4  Rx         0012  8  FF FF FF FF FF FF FF FF 
  1092)    583656.4  Rx         0012  8  FF FF FF FF FF FF FF FF 
  1093)    583667.5  Rx         0012  8  FF FF FF FF FF FF FF FF 
  1094)    583678.5  Rx         0012  8  FF FF FF FF FF FF FF FF 
  1095)    583689.4  Rx         0012  8  FF FF FF FF FF FF FF FF 
  1096)    583700.4  Rx         0012  8  FF FF FF FF FF FF FF FF 
  1097)    583711.4  Rx         0012  8  FF FF FF FF FF FF FF FF 
  1098)    583722.5  Rx         0012  8  FF FF FF FF FF FF FF FF 
  1099)    583733.5  Rx         0012  8  FF FF FF FF FF FF FF FF 
  1100)    583845.5  Rx         0013  8  00 FF FF FF FF FF FF FF 
  1101)    583946.5  Rx         0000  8  07 FF FF FF FF FF FF FF 
  1102)    588895.6  Rx         000A  8  F7 00 00 00 00 00 00 00 
  1103)    598895.8  Rx         000A  8  F8 00 00 00 00 00 00 00 
  1104)    608896.0  Rx         000A  8  F9 00 00 00 00 00 00 00 
  1105)    618896.2  Rx         000A  8  FA 00 00 00 00 00 00 00 
  1106)    628896.4  Rx         000A  8  FB 00 00 00 00 00 00 00 
  1107)    638896.6  Rx         000A  8  FC 00 00 00 00 00 00 00 
  1108)    648896.9  Rx         000A  8  FD 00 00 00 00 00 00 00 
  1109)    658897.1  Rx         000A  8  FE 00 00 00 00 00 00 00 
  1110)    668897.2  Rx         000A  8  FF 00 00 00 00 00 00 00 
  1111)    678897.4  Rx         000A  8  00 00 00 00 00 00 00 00 
  1112)    688897.7  Rx         000A  8  01 00 00 00 00 00 00 00 
  1113)    698897.8  Rx         000A  8  02 00 00 00 00 00 00 00 
  1114)    708898.1  Rx         000A  8  03 00 00 00 00 00 00 00 
  1115)    718898.3  Rx         000A  8  04 00 00 00 00 00 00 00 
  1116)    728898.5  Rx         000A  8  05 00 00 00 00 00 00 00 
  1117)    738898.7  Rx         000A  8  06 00 00 00 00 00 00 00 
  1118)    748898.9  Rx         000A  8  07 00 00 00 00 00 00 00 
  1119)    758899.1  Rx         000A  8  08 00 00 00 00 00 00 00 
  1120)    764116.4  Rx         01A1  8  F2 01 00 00 B0 12 D0 D2 
  1121)    768899.3  Rx         000A  8  09 00 00 00 00 00 00 00 
  1122)    778899.5  Rx         000A  8  0A 00 00 00 00 00 00 00 
  1123)    780193.5  Rx         01A1  8  F2 02 00 00 C6 CD FF FF 
  1124)    788899.7  Rx         000A  8  0B 00 00 00 00 00 00 00 
  1125)    798900.0  Rx         000A  8  0C 00 00 00 00 00 00 00 
  1126)    808900.2  Rx         000A  8  0D 00 00 00 00 00 00 00 
